T26B0 3421:277 SEGGER J-Link V6.32i Log File (0000ms, 13562ms total)
T26B0 3421:277 DLL Compiled: Jul 24 2018 15:19:55 (0000ms, 13562ms total)
T26B0 3421:277 Logging started @ 2021-09-07 15:17 (0000ms, 13562ms total)
T26B0 3421:277 JLINK_SetWarnOutHandler(...) (0000ms, 13562ms total)
T26B0 3421:277 JLINK_OpenEx(...)
Firmware: J-Link ARM-OB STM32 compiled Aug 22 2012 19:52:04
Hardware: V7.00
S/N: 20090928
Feature(s): RDI,FlashDL,FlashBP,JFlash,GDBFull
TELNET listener socket opened on port 19021WEBSRV 
Starting webserver (0032ms, 13594ms total)
T26B0 3421:277 WEBSRV Webserver running on local port 19080 (0033ms, 13595ms total)
T26B0 3421:277   returns O.K. (0033ms, 13595ms total)
T26B0 3421:310 JLINK_GetEmuCaps()  returns 0x88EA5833 (0001ms, 13596ms total)
T26B0 3421:311 JLINK_TIF_GetAvailable(...) (0000ms, 13596ms total)
T26B0 3421:311 JLINK_SetErrorOutHandler(...) (0000ms, 13596ms total)
T26B0 3421:311 JLINK_ExecCommand("ProjectFile = "D:\GZ2123班\上课笔记\day21\代码\项目框架\项目框架\USER\JLinkSettings.ini"", ...).   returns 0x00 (0002ms, 13598ms total)
T26B0 3421:323 JLINK_ExecCommand("Device = STM32F407ZE", ...). Device "STM32F407ZE" selected.  returns 0x00 (0006ms, 13604ms total)
T26B0 3421:329 JLINK_ExecCommand("DisableConnectionTimeout", ...).   returns 0x01 (0000ms, 13604ms total)
T26B0 3421:329 JLINK_GetHardwareVersion()  returns 0x11170 (0000ms, 13604ms total)
T26B0 3421:329 JLINK_GetDLLVersion()  returns 63209 (0000ms, 13604ms total)
T26B0 3421:329 JLINK_GetFirmwareString(...) (0000ms, 13604ms total)
T26B0 3421:387 JLINK_GetDLLVersion()  returns 63209 (0000ms, 13604ms total)
T26B0 3421:387 JLINK_GetCompileDateTime() (0000ms, 13604ms total)
T26B0 3421:403 JLINK_GetFirmwareString(...) (0000ms, 13604ms total)
T26B0 3421:417 JLINK_GetHardwareVersion()  returns 0x11170 (0000ms, 13604ms total)
T26B0 3421:581 JLINK_TIF_Select(JLINKARM_TIF_SWD)  returns 0x00 (0001ms, 13605ms total)
T26B0 3421:582 JLINK_SetSpeed(5000) (0001ms, 13606ms total)
T26B0 3421:583 JLINK_GetId() >0x10B TIF>Found SW-DP with ID 0x2BA01477 >0x0D TIF> >0x28 TIF> >0x0D TIF> >0x28 TIF> >0x0D TIF> >0x28 TIF> >0x0D TIF> >0x28 TIF> >0x0D TIF> >0x21 TIF> >0x0D TIF> >0x28 TIF> >0x0D TIF> >0x28 TIF> >0x0D TIF> >0x28 TIF> >0x0D TIF> >0x21 TIF> >0x0D TIF> >0x21 TIF> >0x0D TIF> >0x28 TIF> >0x0D TIF> >0x21 TIF> >0x0D TIF> >0x21 TIF> >0x0D TIF> >0x28 TIF> >0x0D TIF> >0x21 TIF> >0x0D TIF> >0x21 TIF> >0x0D TIF> >0x28 TIF> >0x0D TIF> >0x21 TIF> >0x0D TIF> >0x21 TIF> >0x0D TIF>
 >0x28 TIF> >0x0D TIF> >0x21 TIF> >0x0D TIF> >0x21 TIF> >0x0D TIF> >0x28 TIF> >0x0D TIF> >0x21 TIF> >0x0D TIF> >0x21 TIF> >0x10B TIF>Found SW-DP with ID 0x2BA01477 >0x0D TIF> >0x28 TIF> >0x0D TIF> >0x28 TIF> >0x0D TIF> >0x28 TIF> >0x0D TIF> >0x28 TIF> >0x0D TIF> >0x21 TIF> >0x0D TIF> >0x28 TIF>Scanning AP map to find all available APs >0x0D TIF> >0x28 TIF> >0x0D TIF> >0x21 TIF> >0x0D TIF> >0x21 TIF> >0x0D TIF> >0x28 TIF> >0x0D TIF> >0x21 TIF> >0x0D TIF> >0x21 TIF>
AP[1]: Stopped AP scan as end of AP map has been reachedAP[0]: AHB-AP (IDR: 0x24770011)Iterating through AP map to find AHB-AP to use >0x42 TIF> >0x28 TIF> >0x0D TIF> >0x28 TIF> >0x0D TIF> >0x21 TIF> >0x0D TIF> >0x21 TIF> >0x42 TIF> >0x28 TIF> >0x0D TIF> >0x28 TIF> >0x0D TIF> >0x28 TIF> >0x0D TIF> >0x21 TIF> >0x0D TIF> >0x21 TIF>AP[0]: Core foundAP[0]: AHB-AP ROM base: 0xE00FF000 >0x0D TIF> >0x28 TIF> >0x0D TIF> >0x28 TIF> >0x0D TIF> >0x28 TIF> >0x0D TIF> >0x21 TIF> >0x0D TIF> >0x21 TIF>
CPUID register: 0x410FC241. Implementer code: 0x41 (ARM)Found Cortex-M4 r0p1, Little endian. -- Max. mem block: 0x00002C18 -- CPU_ReadMem(4 bytes @ 0xE000EDF0) -- CPU_WriteMem(4 bytes @ 0xE000EDF0) -- CPU_ReadMem(4 bytes @ 0xE0002000)FPUnit: 6 code (BP) slots and 2 literal slots -- CPU_ReadMem(4 bytes @ 0xE000EDFC) -- CPU_WriteMem(4 bytes @ 0xE000EDFC) -- CPU_ReadMem(4 bytes @ 0xE0001000) -- CPU_WriteMem(4 bytes @ 0xE0001000) -- CPU_ReadMem(4 bytes @ 0xE000ED88) -- CPU_WriteMem(4 bytes @ 0xE000ED88)
 -- CPU_ReadMem(4 bytes @ 0xE000ED88) -- CPU_WriteMem(4 bytes @ 0xE000ED88)CoreSight components:ROMTbl[0] @ E00FF000 -- CPU_ReadMem(16 bytes @ 0xE00FF000) -- CPU_ReadMem(16 bytes @ 0xE000EFF0) -- CPU_ReadMem(16 bytes @ 0xE000EFE0)ROMTbl[0][0]: E000E000, CID: B105E00D, PID: 000BB00C SCS-M7 -- CPU_ReadMem(16 bytes @ 0xE0001FF0) -- CPU_ReadMem(16 bytes @ 0xE0001FE0)ROMTbl[0][1]: E0001000, CID: B105E00D, PID: 003BB002 DWT -- CPU_ReadMem(16 bytes @ 0xE0002FF0) -- CPU_ReadMem(16 bytes @ 0xE0002FE0)
ROMTbl[0][2]: E0002000, CID: B105E00D, PID: 002BB003 FPB -- CPU_ReadMem(16 bytes @ 0xE0000FF0) -- CPU_ReadMem(16 bytes @ 0xE0000FE0)ROMTbl[0][3]: E0000000, CID: B105E00D, PID: 003BB001 ITM -- CPU_ReadMem(16 bytes @ 0xE00FF010) -- CPU_ReadMem(16 bytes @ 0xE0040FF0) -- CPU_ReadMem(16 bytes @ 0xE0040FE0)ROMTbl[0][4]: E0040000, CID: B105900D, PID: 000BB9A1 TPIU -- CPU_ReadMem(16 bytes @ 0xE0041FF0) -- CPU_ReadMem(16 bytes @ 0xE0041FE0)ROMTbl[0][5]: E0041000, CID: B105900D, PID: 000BB925 ETM >0x0D TIF>
 >0x21 TIF>  returns 0x2BA01477 (0442ms, 14048ms total)
T26B0 3422:025 JLINK_GetDLLVersion()  returns 63209 (0000ms, 14048ms total)
T26B0 3422:025 JLINK_CORE_GetFound()  returns 0xE0000FF (0000ms, 14048ms total)
T26B0 3422:025 JLINK_GetDebugInfo(0x100 = JLINKARM_ROM_TABLE_ADDR_INDEX) -- Value=0xE00FF000  returns 0x00 (0001ms, 14049ms total)
T26B0 3422:034 JLINK_GetDebugInfo(0x100 = JLINKARM_ROM_TABLE_ADDR_INDEX) -- Value=0xE00FF000  returns 0x00 (0000ms, 14049ms total)
T26B0 3422:034 JLINK_GetDebugInfo(0x101 = JLINKARM_DEBUG_INFO_ETM_ADDR_INDEX) -- Value=0xE0041000  returns 0x00 (0000ms, 14049ms total)
T26B0 3422:034 JLINK_ReadMemEx(0xE0041FD0, 0x0020 Bytes, ..., Flags = 0x02000004) -- CPU_ReadMem(32 bytes @ 0xE0041FD0) - Data: 04 00 00 00 00 00 00 00 00 00 00 00 00 00 00 00 ...  returns 0x20 (0001ms, 14050ms total)
T26B0 3422:035 JLINK_GetDebugInfo(0x102 = JLINKARM_DEBUG_INFO_MTB_ADDR_INDEX) -- Value=0x00000000  returns 0x00 (0000ms, 14050ms total)
T26B0 3422:035 JLINK_GetDebugInfo(0x103 = JLINKARM_DEBUG_INFO_TPIU_ADDR_INDEX) -- Value=0xE0040000  returns 0x00 (0000ms, 14050ms total)
T26B0 3422:035 JLINK_GetDebugInfo(0x104 = JLINKARM_DEBUG_INFO_ITM_ADDR_INDEX) -- Value=0xE0000000  returns 0x00 (0000ms, 14050ms total)
T26B0 3422:035 JLINK_GetDebugInfo(0x105 = JLINKARM_DEBUG_INFO_DWT_ADDR_INDEX) -- Value=0xE0001000  returns 0x00 (0000ms, 14050ms total)
T26B0 3422:035 JLINK_GetDebugInfo(0x106 = JLINKARM_DEBUG_INFO_FPB_ADDR_INDEX) -- Value=0xE0002000  returns 0x00 (0000ms, 14050ms total)
T26B0 3422:035 JLINK_GetDebugInfo(0x107 = JLINKARM_DEBUG_INFO_NVIC_ADDR_INDEX) -- Value=0xE000E000  returns 0x00 (0000ms, 14050ms total)
T26B0 3422:035 JLINK_GetDebugInfo(0x10C = JLINKARM_DEBUG_INFO_DBG_ADDR_INDEX) -- Value=0xE000EDF0  returns 0x00 (0000ms, 14050ms total)
T26B0 3422:035 JLINK_GetDebugInfo(0x01 = Unknown) -- Value=0x00000001  returns 0x00 (0000ms, 14050ms total)
T26B0 3422:035 JLINK_ReadMemU32(0xE000ED00, 0x0001 Items, ...) -- CPU_ReadMem(4 bytes @ 0xE000ED00) - Data: 41 C2 0F 41  returns 0x01 (0000ms, 14050ms total)
T26B0 3422:035 JLINK_GetDebugInfo(0x10F = JLINKARM_DEBUG_INFO_HAS_CORTEX_M_SECURITY_EXT_INDEX) -- Value=0x00000000  returns 0x00 (0000ms, 14050ms total)
T26B0 3422:035 JLINK_SetResetType(JLINKARM_CM3_RESET_TYPE_NORMAL)  returns JLINKARM_CM3_RESET_TYPE_NORMAL (0000ms, 14050ms total)
T26B0 3422:035 JLINK_Reset() -- CPU is running -- CPU_WriteMem(4 bytes @ 0xE000EDF0) -- CPU is running -- CPU_WriteMem(4 bytes @ 0xE000EDFC)Reset: Halt core after reset via DEMCR.VC_CORERESET. >0x35 TIF>Reset: Reset device via AIRCR.SYSRESETREQ. -- CPU is running -- CPU_WriteMem(4 bytes @ 0xE000ED0C) >0x0D TIF> >0x28 TIF> -- CPU_ReadMem(4 bytes @ 0xE000EDF0) -- CPU_ReadMem(4 bytes @ 0xE000EDF0) -- CPU is running -- CPU_WriteMem(4 bytes @ 0xE000EDF0) -- CPU is running -- CPU_WriteMem(4 bytes @ 0xE000EDFC)
 -- CPU_ReadMem(4 bytes @ 0xE000EDF0) -- CPU_WriteMem(4 bytes @ 0xE0002000) -- CPU_ReadMem(4 bytes @ 0xE000EDFC) -- CPU_ReadMem(4 bytes @ 0xE0001000) (0157ms, 14207ms total)
T26B0 3422:192 JLINK_Halt()  returns 0x00 (0000ms, 14207ms total)
T26B0 3422:192 JLINK_ReadMemU32(0xE000EDF0, 0x0001 Items, ...) -- CPU_ReadMem(4 bytes @ 0xE000EDF0) - Data: 03 00 03 00  returns 0x01 (0001ms, 14208ms total)
T26B0 3422:193 JLINK_WriteU32(0xE000EDF0, 0xA05F0003) -- CPU_WriteMem(4 bytes @ 0xE000EDF0)  returns 0x00 (0001ms, 14209ms total)
T26B0 3422:194 JLINK_WriteU32(0xE000EDFC, 0x01000000) -- CPU_WriteMem(4 bytes @ 0xE000EDFC)  returns 0x00 (0000ms, 14209ms total)
T26B0 3422:312 JLINK_GetHWStatus(...)  returns 0x00 (0001ms, 14210ms total)
T26B0 3422:456 JLINK_GetNumBPUnits(Type = 0xFFFFFF00)  returns 0x06 (0000ms, 14210ms total)
T26B0 3422:456 JLINK_GetNumBPUnits(Type = 0xF0)  returns 0x2000 (0000ms, 14210ms total)
T26B0 3422:456 JLINK_GetNumWPUnits()  returns 0x04 (0000ms, 14210ms total)
T26B0 3422:489 JLINK_GetSpeed()  returns 0xFA0 (0000ms, 14210ms total)
T26B0 3422:527 JLINK_ReadMemU32(0xE000E004, 0x0001 Items, ...) -- CPU_ReadMem(4 bytes @ 0xE000E004) - Data: 02 00 00 00  returns 0x01 (0001ms, 14211ms total)
T26B0 3422:529 JLINK_ReadMemU32(0xE000E004, 0x0001 Items, ...) -- CPU_ReadMem(4 bytes @ 0xE000E004) - Data: 02 00 00 00  returns 0x01 (0005ms, 14216ms total)
T26B0 3422:535 JLINK_WriteMemEx(0xE0001000, 0x001C Bytes, ..., Flags = 0x02000004) - Data: 01 00 00 00 00 00 00 00 00 00 00 00 00 00 00 00 ... -- CPU_WriteMem(28 bytes @ 0xE0001000)  returns 0x1C (0003ms, 14219ms total)
T26B0 3422:538 JLINK_Halt()  returns 0x00 (0000ms, 14219ms total)
T26B0 3422:538 JLINK_IsHalted()  returns TRUE (0000ms, 14219ms total)
T26B0 3422:559 JLINK_WriteMem(0x20000000, 0x0180 Bytes, ...) - Data: 00 BE 0A E0 0D 78 2D 06 68 40 08 24 40 00 00 D3 ... -- CPU_WriteMem(384 bytes @ 0x20000000)  returns 0x180 (0006ms, 14225ms total)
T26B0 3422:565 JLINK_WriteReg(R0, 0x08000000)  returns 0x00 (0000ms, 14225ms total)
T26B0 3422:565 JLINK_WriteReg(R1, 0x00B71B00)  returns 0x00 (0000ms, 14225ms total)
T26B0 3422:565 JLINK_WriteReg(R2, 0x00000001)  returns 0x00 (0000ms, 14225ms total)
T26B0 3422:565 JLINK_WriteReg(R3, 0x00000000)  returns 0x00 (0000ms, 14225ms total)
T26B0 3422:565 JLINK_WriteReg(R4, 0x00000000)  returns 0x00 (0000ms, 14225ms total)
T26B0 3422:565 JLINK_WriteReg(R5, 0x00000000)  returns 0x00 (0000ms, 14225ms total)
T26B0 3422:565 JLINK_WriteReg(R6, 0x00000000)  returns 0x00 (0000ms, 14225ms total)
T26B0 3422:565 JLINK_WriteReg(R7, 0x00000000)  returns 0x00 (0000ms, 14225ms total)
T26B0 3422:565 JLINK_WriteReg(R8, 0x00000000)  returns 0x00 (0000ms, 14225ms total)
T26B0 3422:565 JLINK_WriteReg(R9, 0x2000017C)  returns 0x00 (0000ms, 14225ms total)
T26B0 3422:565 JLINK_WriteReg(R10, 0x00000000)  returns 0x00 (0000ms, 14225ms total)
T26B0 3422:565 JLINK_WriteReg(R11, 0x00000000)  returns 0x00 (0000ms, 14225ms total)
T26B0 3422:565 JLINK_WriteReg(R12, 0x00000000)  returns 0x00 (0000ms, 14225ms total)
T26B0 3422:566 JLINK_WriteReg(R13 (SP), 0x20001000)  returns 0x00 (0000ms, 14226ms total)
T26B0 3422:566 JLINK_WriteReg(R14, 0x20000001)  returns 0x00 (0000ms, 14226ms total)
T26B0 3422:566 JLINK_WriteReg(R15 (PC), 0x20000054)  returns 0x00 (0000ms, 14226ms total)
T26B0 3422:566 JLINK_WriteReg(XPSR, 0x01000000)  returns 0x00 (0000ms, 14226ms total)
T26B0 3422:566 JLINK_WriteReg(MSP, 0x20001000)  returns 0x00 (0000ms, 14226ms total)
T26B0 3422:566 JLINK_WriteReg(PSP, 0x20001000)  returns 0x00 (0000ms, 14226ms total)
T26B0 3422:566 JLINK_WriteReg(CFBP, 0x00000000)  returns 0x00 (0000ms, 14226ms total)
T26B0 3422:566 JLINK_SetBPEx(Addr = 0x20000000, Type = 0xFFFFFFF2) -- CPU_ReadMem(2 bytes @ 0x20000000)  returns 0x00000001 (0001ms, 14227ms total)
T26B0 3422:567 JLINK_Go() -- CPU_WriteMem(2 bytes @ 0x20000000) -- CPU_ReadMem(4 bytes @ 0xE0001000) -- CPU_WriteMem(4 bytes @ 0xE0002008) -- CPU_WriteMem(4 bytes @ 0xE000200C) -- CPU_WriteMem(4 bytes @ 0xE0002010) -- CPU_WriteMem(4 bytes @ 0xE0002014) -- CPU_WriteMem(4 bytes @ 0xE0002018) -- CPU_WriteMem(4 bytes @ 0xE000201C) -- CPU_WriteMem(4 bytes @ 0xE0001004) (0005ms, 14232ms total)
T26B0 3422:572 JLINK_IsHalted() -- CPU_ReadMem(2 bytes @ 0x20000000)  returns TRUE (0004ms, 14236ms total)
T26B0 3422:576 JLINK_ReadReg(R15 (PC))  returns 0x20000000 (0000ms, 14232ms total)
T26B0 3422:576 JLINK_ClrBPEx(BPHandle = 0x00000001)  returns 0x00 (0000ms, 14232ms total)
T26B0 3422:576 JLINK_ReadReg(R0)  returns 0x00000000 (0000ms, 14232ms total)
T26B0 3422:584 JLINK_WriteReg(R0, 0x08000000)  returns 0x00 (0000ms, 14232ms total)
T26B0 3422:584 JLINK_WriteReg(R1, 0x00004000)  returns 0x00 (0000ms, 14232ms total)
T26B0 3422:584 JLINK_WriteReg(R2, 0x000000FF)  returns 0x00 (0000ms, 14232ms total)
T26B0 3422:584 JLINK_WriteReg(R3, 0x00000000)  returns 0x00 (0000ms, 14232ms total)
T26B0 3422:584 JLINK_WriteReg(R4, 0x00000000)  returns 0x00 (0000ms, 14232ms total)
T26B0 3422:584 JLINK_WriteReg(R5, 0x00000000)  returns 0x00 (0000ms, 14232ms total)
T26B0 3422:584 JLINK_WriteReg(R6, 0x00000000)  returns 0x00 (0000ms, 14232ms total)
T26B0 3422:584 JLINK_WriteReg(R7, 0x00000000)  returns 0x00 (0000ms, 14232ms total)
T26B0 3422:584 JLINK_WriteReg(R8, 0x00000000)  returns 0x00 (0000ms, 14232ms total)
T26B0 3422:584 JLINK_WriteReg(R9, 0x2000017C)  returns 0x00 (0000ms, 14232ms total)
T26B0 3422:584 JLINK_WriteReg(R10, 0x00000000)  returns 0x00 (0000ms, 14232ms total)
T26B0 3422:584 JLINK_WriteReg(R11, 0x00000000)  returns 0x00 (0000ms, 14232ms total)
T26B0 3422:584 JLINK_WriteReg(R12, 0x00000000)  returns 0x00 (0000ms, 14232ms total)
T26B0 3422:584 JLINK_WriteReg(R13 (SP), 0x20001000)  returns 0x00 (0000ms, 14232ms total)
T26B0 3422:584 JLINK_WriteReg(R14, 0x20000001)  returns 0x00 (0000ms, 14232ms total)
T26B0 3422:584 JLINK_WriteReg(R15 (PC), 0x20000020)  returns 0x00 (0000ms, 14232ms total)
T26B0 3422:584 JLINK_WriteReg(XPSR, 0x01000000)  returns 0x00 (0000ms, 14232ms total)
T26B0 3422:584 JLINK_WriteReg(MSP, 0x20001000)  returns 0x00 (0000ms, 14232ms total)
T26B0 3422:584 JLINK_WriteReg(PSP, 0x20001000)  returns 0x00 (0000ms, 14232ms total)
T26B0 3422:584 JLINK_WriteReg(CFBP, 0x00000000)  returns 0x00 (0000ms, 14232ms total)
T26B0 3422:584 JLINK_SetBPEx(Addr = 0x20000000, Type = 0xFFFFFFF2)  returns 0x00000002 (0000ms, 14232ms total)
T26B0 3422:585 JLINK_Go() -- CPU_ReadMem(4 bytes @ 0xE0001000) (0002ms, 14235ms total)
T26B0 3422:587 JLINK_IsHalted() -- CPU_ReadMem(2 bytes @ 0x20000000)  returns TRUE (0004ms, 14239ms total)
T26B0 3422:591 JLINK_ReadReg(R15 (PC))  returns 0x20000000 (0000ms, 14235ms total)
T26B0 3422:591 JLINK_ClrBPEx(BPHandle = 0x00000002)  returns 0x00 (0000ms, 14235ms total)
T26B0 3422:591 JLINK_ReadReg(R0)  returns 0x00000001 (0000ms, 14235ms total)
T26B0 3422:591 JLINK_WriteReg(R0, 0x08000000)  returns 0x00 (0000ms, 14235ms total)
T26B0 3422:591 JLINK_WriteReg(R1, 0x00004000)  returns 0x00 (0000ms, 14235ms total)
T26B0 3422:591 JLINK_WriteReg(R2, 0x000000FF)  returns 0x00 (0000ms, 14235ms total)
T26B0 3422:591 JLINK_WriteReg(R3, 0x00000000)  returns 0x00 (0000ms, 14235ms total)
T26B0 3422:591 JLINK_WriteReg(R4, 0x00000000)  returns 0x00 (0000ms, 14235ms total)
T26B0 3422:591 JLINK_WriteReg(R5, 0x00000000)  returns 0x00 (0000ms, 14235ms total)
T26B0 3422:591 JLINK_WriteReg(R6, 0x00000000)  returns 0x00 (0000ms, 14235ms total)
T26B0 3422:591 JLINK_WriteReg(R7, 0x00000000)  returns 0x00 (0000ms, 14235ms total)
T26B0 3422:591 JLINK_WriteReg(R8, 0x00000000)  returns 0x00 (0000ms, 14235ms total)
T26B0 3422:591 JLINK_WriteReg(R9, 0x2000017C)  returns 0x00 (0000ms, 14235ms total)
T26B0 3422:591 JLINK_WriteReg(R10, 0x00000000)  returns 0x00 (0000ms, 14235ms total)
T26B0 3422:591 JLINK_WriteReg(R11, 0x00000000)  returns 0x00 (0000ms, 14235ms total)
T26B0 3422:591 JLINK_WriteReg(R12, 0x00000000)  returns 0x00 (0000ms, 14235ms total)
T26B0 3422:591 JLINK_WriteReg(R13 (SP), 0x20001000)  returns 0x00 (0000ms, 14235ms total)
T26B0 3422:591 JLINK_WriteReg(R14, 0x20000001)  returns 0x00 (0000ms, 14235ms total)
T26B0 3422:591 JLINK_WriteReg(R15 (PC), 0x200000BC)  returns 0x00 (0000ms, 14235ms total)
T26B0 3422:591 JLINK_WriteReg(XPSR, 0x01000000)  returns 0x00 (0001ms, 14236ms total)
T26B0 3422:592 JLINK_WriteReg(MSP, 0x20001000)  returns 0x00 (0000ms, 14236ms total)
T26B0 3422:592 JLINK_WriteReg(PSP, 0x20001000)  returns 0x00 (0000ms, 14236ms total)
T26B0 3422:592 JLINK_WriteReg(CFBP, 0x00000000)  returns 0x00 (0000ms, 14236ms total)
T26B0 3422:592 JLINK_SetBPEx(Addr = 0x20000000, Type = 0xFFFFFFF2)  returns 0x00000003 (0000ms, 14236ms total)
T26B0 3422:592 JLINK_Go() -- CPU_ReadMem(4 bytes @ 0xE0001000) (0003ms, 14239ms total)
T26B0 3422:595 JLINK_IsHalted()  returns FALSE (0000ms, 14239ms total)
T26B0 3423:419 JLINK_IsHalted() -- CPU_ReadMem(2 bytes @ 0x20000000)  returns TRUE (0008ms, 14247ms total)
T26B0 3423:427 JLINK_ReadReg(R15 (PC))  returns 0x20000000 (0000ms, 14239ms total)
T26B0 3423:427 JLINK_ClrBPEx(BPHandle = 0x00000003)  returns 0x00 (0001ms, 14240ms total)
T26B0 3423:428 JLINK_ReadReg(R0)  returns 0x00000000 (0000ms, 14240ms total)
T26B0 3423:430 JLINK_WriteReg(R0, 0x08004000)  returns 0x00 (0000ms, 14240ms total)
T26B0 3423:430 JLINK_WriteReg(R1, 0x00004000)  returns 0x00 (0000ms, 14240ms total)
T26B0 3423:430 JLINK_WriteReg(R2, 0x000000FF)  returns 0x00 (0000ms, 14240ms total)
T26B0 3423:430 JLINK_WriteReg(R3, 0x00000000)  returns 0x00 (0000ms, 14240ms total)
T26B0 3423:430 JLINK_WriteReg(R4, 0x00000000)  returns 0x00 (0000ms, 14240ms total)
T26B0 3423:430 JLINK_WriteReg(R5, 0x00000000)  returns 0x00 (0000ms, 14240ms total)
T26B0 3423:430 JLINK_WriteReg(R6, 0x00000000)  returns 0x00 (0000ms, 14240ms total)
T26B0 3423:430 JLINK_WriteReg(R7, 0x00000000)  returns 0x00 (0000ms, 14240ms total)
T26B0 3423:430 JLINK_WriteReg(R8, 0x00000000)  returns 0x00 (0000ms, 14240ms total)
T26B0 3423:430 JLINK_WriteReg(R9, 0x2000017C)  returns 0x00 (0000ms, 14240ms total)
T26B0 3423:430 JLINK_WriteReg(R10, 0x00000000)  returns 0x00 (0000ms, 14240ms total)
T26B0 3423:430 JLINK_WriteReg(R11, 0x00000000)  returns 0x00 (0000ms, 14240ms total)
T26B0 3423:430 JLINK_WriteReg(R12, 0x00000000)  returns 0x00 (0000ms, 14240ms total)
T26B0 3423:430 JLINK_WriteReg(R13 (SP), 0x20001000)  returns 0x00 (0000ms, 14240ms total)
T26B0 3423:430 JLINK_WriteReg(R14, 0x20000001)  returns 0x00 (0000ms, 14240ms total)
T26B0 3423:430 JLINK_WriteReg(R15 (PC), 0x20000020)  returns 0x00 (0000ms, 14240ms total)
T26B0 3423:430 JLINK_WriteReg(XPSR, 0x01000000)  returns 0x00 (0000ms, 14240ms total)
T26B0 3423:430 JLINK_WriteReg(MSP, 0x20001000)  returns 0x00 (0000ms, 14240ms total)
T26B0 3423:430 JLINK_WriteReg(PSP, 0x20001000)  returns 0x00 (0000ms, 14240ms total)
T26B0 3423:430 JLINK_WriteReg(CFBP, 0x00000000)  returns 0x00 (0000ms, 14240ms total)
T26B0 3423:430 JLINK_SetBPEx(Addr = 0x20000000, Type = 0xFFFFFFF2)  returns 0x00000004 (0000ms, 14240ms total)
T26B0 3423:430 JLINK_Go() -- CPU_ReadMem(4 bytes @ 0xE0001000) (0003ms, 14243ms total)
T26B0 3423:433 JLINK_IsHalted() -- CPU_ReadMem(2 bytes @ 0x20000000)  returns TRUE (0004ms, 14247ms total)
T26B0 3423:437 JLINK_ReadReg(R15 (PC))  returns 0x20000000 (0000ms, 14243ms total)
T26B0 3423:437 JLINK_ClrBPEx(BPHandle = 0x00000004)  returns 0x00 (0000ms, 14243ms total)
T26B0 3423:437 JLINK_ReadReg(R0)  returns 0x00000001 (0000ms, 14243ms total)
T26B0 3423:437 JLINK_WriteReg(R0, 0x08004000)  returns 0x00 (0000ms, 14243ms total)
T26B0 3423:437 JLINK_WriteReg(R1, 0x00004000)  returns 0x00 (0000ms, 14243ms total)
T26B0 3423:437 JLINK_WriteReg(R2, 0x000000FF)  returns 0x00 (0000ms, 14243ms total)
T26B0 3423:437 JLINK_WriteReg(R3, 0x00000000)  returns 0x00 (0000ms, 14243ms total)
T26B0 3423:437 JLINK_WriteReg(R4, 0x00000000)  returns 0x00 (0000ms, 14243ms total)
T26B0 3423:437 JLINK_WriteReg(R5, 0x00000000)  returns 0x00 (0000ms, 14243ms total)
T26B0 3423:437 JLINK_WriteReg(R6, 0x00000000)  returns 0x00 (0000ms, 14243ms total)
T26B0 3423:437 JLINK_WriteReg(R7, 0x00000000)  returns 0x00 (0000ms, 14243ms total)
T26B0 3423:437 JLINK_WriteReg(R8, 0x00000000)  returns 0x00 (0000ms, 14243ms total)
T26B0 3423:437 JLINK_WriteReg(R9, 0x2000017C)  returns 0x00 (0000ms, 14243ms total)
T26B0 3423:437 JLINK_WriteReg(R10, 0x00000000)  returns 0x00 (0000ms, 14243ms total)
T26B0 3423:437 JLINK_WriteReg(R11, 0x00000000)  returns 0x00 (0000ms, 14243ms total)
T26B0 3423:437 JLINK_WriteReg(R12, 0x00000000)  returns 0x00 (0000ms, 14243ms total)
T26B0 3423:437 JLINK_WriteReg(R13 (SP), 0x20001000)  returns 0x00 (0000ms, 14243ms total)
T26B0 3423:437 JLINK_WriteReg(R14, 0x20000001)  returns 0x00 (0000ms, 14243ms total)
T26B0 3423:437 JLINK_WriteReg(R15 (PC), 0x200000BC)  returns 0x00 (0000ms, 14243ms total)
T26B0 3423:437 JLINK_WriteReg(XPSR, 0x01000000)  returns 0x00 (0000ms, 14243ms total)
T26B0 3423:437 JLINK_WriteReg(MSP, 0x20001000)  returns 0x00 (0000ms, 14243ms total)
T26B0 3423:437 JLINK_WriteReg(PSP, 0x20001000)  returns 0x00 (0000ms, 14243ms total)
T26B0 3423:437 JLINK_WriteReg(CFBP, 0x00000000)  returns 0x00 (0000ms, 14243ms total)
T26B0 3423:437 JLINK_SetBPEx(Addr = 0x20000000, Type = 0xFFFFFFF2)  returns 0x00000005 (0000ms, 14243ms total)
T26B0 3423:437 JLINK_Go() -- CPU_ReadMem(4 bytes @ 0xE0001000) (0002ms, 14245ms total)
T26B0 3423:440 JLINK_IsHalted()  returns FALSE (0001ms, 14246ms total)
T26B0 3423:457 JLINK_IsHalted()  returns FALSE (0001ms, 14246ms total)
T26B0 3423:460 JLINK_IsHalted()  returns FALSE (0004ms, 14249ms total)
T26B0 3423:466 JLINK_IsHalted()  returns FALSE (0000ms, 14245ms total)
T26B0 3423:468 JLINK_IsHalted()  returns FALSE (0000ms, 14245ms total)
T26B0 3423:470 JLINK_IsHalted()  returns FALSE (0000ms, 14245ms total)
T26B0 3423:472 JLINK_IsHalted()  returns FALSE (0005ms, 14250ms total)
T26B0 3423:498 JLINK_IsHalted()  returns FALSE (0000ms, 14245ms total)
T26B0 3423:501 JLINK_IsHalted()  returns FALSE (0001ms, 14246ms total)
T26B0 3423:537 JLINK_IsHalted()  returns FALSE (0000ms, 14245ms total)
T26B0 3423:539 JLINK_IsHalted()  returns FALSE (0000ms, 14245ms total)
T26B0 3423:541 JLINK_IsHalted()  returns FALSE (0000ms, 14245ms total)
T26B0 3423:544 JLINK_IsHalted()  returns FALSE (0001ms, 14246ms total)
T26B0 3423:547 JLINK_IsHalted()  returns FALSE (0000ms, 14245ms total)
T26B0 3423:554 JLINK_IsHalted()  returns FALSE (0000ms, 14245ms total)
T26B0 3423:556 JLINK_IsHalted()  returns FALSE (0000ms, 14245ms total)
T26B0 3423:559 JLINK_IsHalted()  returns FALSE (0000ms, 14245ms total)
T26B0 3423:562 JLINK_IsHalted()  returns FALSE (0001ms, 14246ms total)
T26B0 3423:565 JLINK_IsHalted()  returns FALSE (0001ms, 14246ms total)
T26B0 3423:588 JLINK_IsHalted()  returns FALSE (0000ms, 14245ms total)
T26B0 3423:590 JLINK_IsHalted()  returns FALSE (0000ms, 14245ms total)
T26B0 3423:592 JLINK_IsHalted()  returns FALSE (0000ms, 14245ms total)
T26B0 3423:594 JLINK_IsHalted()  returns FALSE (0000ms, 14245ms total)
T26B0 3423:596 JLINK_IsHalted()  returns FALSE (0000ms, 14245ms total)
T26B0 3423:598 JLINK_IsHalted()  returns FALSE (0000ms, 14245ms total)
T26B0 3423:605 JLINK_IsHalted()  returns FALSE (0000ms, 14245ms total)
T26B0 3423:608 JLINK_IsHalted()  returns FALSE (0000ms, 14245ms total)
T26B0 3423:610 JLINK_IsHalted()  returns FALSE (0000ms, 14245ms total)
T26B0 3423:612 JLINK_IsHalted()  returns FALSE (0000ms, 14245ms total)
T26B0 3423:623 JLINK_IsHalted()  returns FALSE (0001ms, 14246ms total)
T26B0 3423:631 JLINK_IsHalted()  returns FALSE (0000ms, 14245ms total)
T26B0 3423:633 JLINK_IsHalted()  returns FALSE (0000ms, 14245ms total)
T26B0 3423:635 JLINK_IsHalted()  returns FALSE (0000ms, 14245ms total)
T26B0 3423:637 JLINK_IsHalted()  returns FALSE (0000ms, 14245ms total)
T26B0 3423:639 JLINK_IsHalted()  returns FALSE (0000ms, 14245ms total)
T26B0 3423:645 JLINK_IsHalted()  returns FALSE (0000ms, 14245ms total)
T26B0 3423:647 JLINK_IsHalted()  returns FALSE (0001ms, 14246ms total)
T26B0 3423:653 JLINK_IsHalted()  returns FALSE (0001ms, 14246ms total)
T26B0 3423:656 JLINK_IsHalted()  returns FALSE (0000ms, 14245ms total)
T26B0 3423:658 JLINK_IsHalted()  returns FALSE (0000ms, 14245ms total)
T26B0 3423:660 JLINK_IsHalted()  returns FALSE (0017ms, 14262ms total)
T26B0 3423:692 JLINK_IsHalted()  returns FALSE (0000ms, 14245ms total)
T26B0 3423:698 JLINK_IsHalted()  returns FALSE (0000ms, 14245ms total)
T26B0 3423:707 JLINK_IsHalted()  returns FALSE (0006ms, 14251ms total)
T26B0 3423:737 JLINK_IsHalted()  returns FALSE (0001ms, 14246ms total)
T26B0 3423:740 JLINK_IsHalted()  returns FALSE (0004ms, 14249ms total)
T26B0 3423:764 JLINK_IsHalted()  returns FALSE (0001ms, 14246ms total)
T26B0 3423:780 JLINK_IsHalted()  returns FALSE (0000ms, 14245ms total)
T26B0 3423:782 JLINK_IsHalted()  returns FALSE (0000ms, 14245ms total)
T26B0 3423:784 JLINK_IsHalted()  returns FALSE (0000ms, 14245ms total)
T26B0 3423:786 JLINK_IsHalted()  returns FALSE (0000ms, 14245ms total)
T26B0 3423:788 JLINK_IsHalted()  returns FALSE (0001ms, 14246ms total)
T26B0 3423:886 JLINK_IsHalted() -- CPU_ReadMem(2 bytes @ 0x20000000)  returns TRUE (0003ms, 14248ms total)
T26B0 3423:889 JLINK_ReadReg(R15 (PC))  returns 0x20000000 (0000ms, 14245ms total)
T26B0 3423:889 JLINK_ClrBPEx(BPHandle = 0x00000005)  returns 0x00 (0000ms, 14245ms total)
T26B0 3423:889 JLINK_ReadReg(R0)  returns 0x00000000 (0000ms, 14245ms total)
T26B0 3423:896 JLINK_WriteReg(R0, 0x00000001)  returns 0x00 (0000ms, 14245ms total)
T26B0 3423:896 JLINK_WriteReg(R1, 0x00004000)  returns 0x00 (0000ms, 14245ms total)
T26B0 3423:896 JLINK_WriteReg(R2, 0x000000FF)  returns 0x00 (0000ms, 14245ms total)
T26B0 3423:896 JLINK_WriteReg(R3, 0x00000000)  returns 0x00 (0000ms, 14245ms total)
T26B0 3423:896 JLINK_WriteReg(R4, 0x00000000)  returns 0x00 (0000ms, 14245ms total)
T26B0 3423:896 JLINK_WriteReg(R5, 0x00000000)  returns 0x00 (0000ms, 14245ms total)
T26B0 3423:896 JLINK_WriteReg(R6, 0x00000000)  returns 0x00 (0001ms, 14246ms total)
T26B0 3423:897 JLINK_WriteReg(R7, 0x00000000)  returns 0x00 (0000ms, 14246ms total)
T26B0 3423:897 JLINK_WriteReg(R8, 0x00000000)  returns 0x00 (0000ms, 14246ms total)
T26B0 3423:897 JLINK_WriteReg(R9, 0x2000017C)  returns 0x00 (0000ms, 14246ms total)
T26B0 3423:897 JLINK_WriteReg(R10, 0x00000000)  returns 0x00 (0000ms, 14246ms total)
T26B0 3423:897 JLINK_WriteReg(R11, 0x00000000)  returns 0x00 (0000ms, 14246ms total)
T26B0 3423:897 JLINK_WriteReg(R12, 0x00000000)  returns 0x00 (0000ms, 14246ms total)
T26B0 3423:897 JLINK_WriteReg(R13 (SP), 0x20001000)  returns 0x00 (0000ms, 14246ms total)
T26B0 3423:897 JLINK_WriteReg(R14, 0x20000001)  returns 0x00 (0000ms, 14246ms total)
T26B0 3423:897 JLINK_WriteReg(R15 (PC), 0x20000082)  returns 0x00 (0000ms, 14246ms total)
T26B0 3423:897 JLINK_WriteReg(XPSR, 0x01000000)  returns 0x00 (0000ms, 14246ms total)
T26B0 3423:897 JLINK_WriteReg(MSP, 0x20001000)  returns 0x00 (0000ms, 14246ms total)
T26B0 3423:897 JLINK_WriteReg(PSP, 0x20001000)  returns 0x00 (0000ms, 14246ms total)
T26B0 3423:897 JLINK_WriteReg(CFBP, 0x00000000)  returns 0x00 (0000ms, 14246ms total)
T26B0 3423:897 JLINK_SetBPEx(Addr = 0x20000000, Type = 0xFFFFFFF2)  returns 0x00000006 (0000ms, 14246ms total)
T26B0 3423:897 JLINK_Go() -- CPU_ReadMem(4 bytes @ 0xE0001000) (0002ms, 14248ms total)
T26B0 3423:899 JLINK_IsHalted() -- CPU_ReadMem(2 bytes @ 0x20000000)  returns TRUE (0005ms, 14253ms total)
T26B0 3423:904 JLINK_ReadReg(R15 (PC))  returns 0x20000000 (0000ms, 14248ms total)
T26B0 3423:904 JLINK_ClrBPEx(BPHandle = 0x00000006)  returns 0x00 (0000ms, 14248ms total)
T26B0 3423:904 JLINK_ReadReg(R0)  returns 0x00000000 (0000ms, 14248ms total)
T26B0 3423:971 JLINK_WriteMem(0x20000000, 0x0180 Bytes, ...) - Data: 00 BE 0A E0 0D 78 2D 06 68 40 08 24 40 00 00 D3 ... -- CPU_WriteMem(384 bytes @ 0x20000000)  returns 0x180 (0006ms, 14254ms total)
T26B0 3423:977 JLINK_WriteReg(R0, 0x08000000)  returns 0x00 (0000ms, 14254ms total)
T26B0 3423:977 JLINK_WriteReg(R1, 0x00B71B00)  returns 0x00 (0000ms, 14254ms total)
T26B0 3423:977 JLINK_WriteReg(R2, 0x00000002)  returns 0x00 (0000ms, 14254ms total)
T26B0 3423:977 JLINK_WriteReg(R3, 0x00000000)  returns 0x00 (0000ms, 14254ms total)
T26B0 3423:977 JLINK_WriteReg(R4, 0x00000000)  returns 0x00 (0000ms, 14254ms total)
T26B0 3423:977 JLINK_WriteReg(R5, 0x00000000)  returns 0x00 (0000ms, 14254ms total)
T26B0 3423:977 JLINK_WriteReg(R6, 0x00000000)  returns 0x00 (0000ms, 14254ms total)
T26B0 3423:977 JLINK_WriteReg(R7, 0x00000000)  returns 0x00 (0000ms, 14254ms total)
T26B0 3423:977 JLINK_WriteReg(R8, 0x00000000)  returns 0x00 (0000ms, 14254ms total)
T26B0 3423:977 JLINK_WriteReg(R9, 0x2000017C)  returns 0x00 (0000ms, 14254ms total)
T26B0 3423:977 JLINK_WriteReg(R10, 0x00000000)  returns 0x00 (0000ms, 14254ms total)
T26B0 3423:977 JLINK_WriteReg(R11, 0x00000000)  returns 0x00 (0000ms, 14254ms total)
T26B0 3423:977 JLINK_WriteReg(R12, 0x00000000)  returns 0x00 (0000ms, 14254ms total)
T26B0 3423:977 JLINK_WriteReg(R13 (SP), 0x20001000)  returns 0x00 (0000ms, 14254ms total)
T26B0 3423:977 JLINK_WriteReg(R14, 0x20000001)  returns 0x00 (0000ms, 14254ms total)
T26B0 3423:977 JLINK_WriteReg(R15 (PC), 0x20000054)  returns 0x00 (0000ms, 14254ms total)
T26B0 3423:977 JLINK_WriteReg(XPSR, 0x01000000)  returns 0x00 (0000ms, 14254ms total)
T26B0 3423:977 JLINK_WriteReg(MSP, 0x20001000)  returns 0x00 (0000ms, 14254ms total)
T26B0 3423:977 JLINK_WriteReg(PSP, 0x20001000)  returns 0x00 (0000ms, 14254ms total)
T26B0 3423:977 JLINK_WriteReg(CFBP, 0x00000000)  returns 0x00 (0000ms, 14254ms total)
T26B0 3423:977 JLINK_SetBPEx(Addr = 0x20000000, Type = 0xFFFFFFF2) -- CPU_ReadMem(2 bytes @ 0x20000000)  returns 0x00000007 (0002ms, 14256ms total)
T26B0 3423:979 JLINK_Go() -- CPU_WriteMem(2 bytes @ 0x20000000) -- CPU_ReadMem(4 bytes @ 0xE0001000) (0003ms, 14259ms total)
T26B0 3423:982 JLINK_IsHalted() -- CPU_ReadMem(2 bytes @ 0x20000000)  returns TRUE (0004ms, 14263ms total)
T26B0 3423:986 JLINK_ReadReg(R15 (PC))  returns 0x20000000 (0000ms, 14259ms total)
T26B0 3423:986 JLINK_ClrBPEx(BPHandle = 0x00000007)  returns 0x00 (0001ms, 14260ms total)
T26B0 3423:987 JLINK_ReadReg(R0)  returns 0x00000000 (0000ms, 14260ms total)
T26B0 3423:988 JLINK_WriteMem(0x20000180, 0x0280 Bytes, ...) - Data: 38 80 00 20 31 02 00 08 89 08 00 08 81 08 00 08 ... -- CPU_WriteMem(640 bytes @ 0x20000180)  returns 0x280 (0009ms, 14269ms total)
T26B0 3423:997 JLINK_WriteMem(0x20000400, 0x0180 Bytes, ...) - Data: 80 F3 10 88 70 47 30 BF 70 47 20 BF 70 47 B0 FA ... -- CPU_WriteMem(384 bytes @ 0x20000400)  returns 0x180 (0006ms, 14275ms total)
T26B0 3424:003 JLINK_WriteReg(R0, 0x08000000)  returns 0x00 (0000ms, 14275ms total)
T26B0 3424:003 JLINK_WriteReg(R1, 0x00000400)  returns 0x00 (0000ms, 14275ms total)
T26B0 3424:003 JLINK_WriteReg(R2, 0x20000180)  returns 0x00 (0000ms, 14275ms total)
T26B0 3424:003 JLINK_WriteReg(R3, 0x00000000)  returns 0x00 (0000ms, 14275ms total)
T26B0 3424:003 JLINK_WriteReg(R4, 0x00000000)  returns 0x00 (0000ms, 14275ms total)
T26B0 3424:003 JLINK_WriteReg(R5, 0x00000000)  returns 0x00 (0000ms, 14275ms total)
T26B0 3424:003 JLINK_WriteReg(R6, 0x00000000)  returns 0x00 (0000ms, 14275ms total)
T26B0 3424:003 JLINK_WriteReg(R7, 0x00000000)  returns 0x00 (0000ms, 14275ms total)
T26B0 3424:003 JLINK_WriteReg(R8, 0x00000000)  returns 0x00 (0000ms, 14275ms total)
T26B0 3424:003 JLINK_WriteReg(R9, 0x2000017C)  returns 0x00 (0000ms, 14275ms total)
T26B0 3424:003 JLINK_WriteReg(R10, 0x00000000)  returns 0x00 (0000ms, 14275ms total)
T26B0 3424:003 JLINK_WriteReg(R11, 0x00000000)  returns 0x00 (0000ms, 14275ms total)
T26B0 3424:003 JLINK_WriteReg(R12, 0x00000000)  returns 0x00 (0000ms, 14275ms total)
T26B0 3424:003 JLINK_WriteReg(R13 (SP), 0x20001000)  returns 0x00 (0000ms, 14275ms total)
T26B0 3424:003 JLINK_WriteReg(R14, 0x20000001)  returns 0x00 (0000ms, 14275ms total)
T26B0 3424:003 JLINK_WriteReg(R15 (PC), 0x20000108)  returns 0x00 (0000ms, 14275ms total)
T26B0 3424:003 JLINK_WriteReg(XPSR, 0x01000000)  returns 0x00 (0000ms, 14275ms total)
T26B0 3424:003 JLINK_WriteReg(MSP, 0x20001000)  returns 0x00 (0000ms, 14275ms total)
T26B0 3424:003 JLINK_WriteReg(PSP, 0x20001000)  returns 0x00 (0000ms, 14275ms total)
T26B0 3424:003 JLINK_WriteReg(CFBP, 0x00000000)  returns 0x00 (0000ms, 14275ms total)
T26B0 3424:003 JLINK_SetBPEx(Addr = 0x20000000, Type = 0xFFFFFFF2)  returns 0x00000008 (0000ms, 14275ms total)
T26B0 3424:003 JLINK_Go() -- CPU_ReadMem(4 bytes @ 0xE0001000) (0003ms, 14278ms total)
T26B0 3424:006 JLINK_IsHalted()  returns FALSE (0000ms, 14278ms total)
T26B0 3424:105 JLINK_IsHalted() -- CPU_ReadMem(2 bytes @ 0x20000000)  returns TRUE (0004ms, 14282ms total)
T26B0 3424:109 JLINK_ReadReg(R15 (PC))  returns 0x20000000 (0000ms, 14278ms total)
T26B0 3424:109 JLINK_ClrBPEx(BPHandle = 0x00000008)  returns 0x00 (0000ms, 14278ms total)
T26B0 3424:109 JLINK_ReadReg(R0)  returns 0x00000000 (0000ms, 14278ms total)
T26B0 3424:110 JLINK_WriteMem(0x20000180, 0x0280 Bytes, ...) - Data: 20 62 4E 45 F4 DB 20 78 C0 06 0A D5 20 46 AF F3 ... -- CPU_WriteMem(640 bytes @ 0x20000180)  returns 0x280 (0008ms, 14286ms total)
T26B0 3424:118 JLINK_WriteMem(0x20000400, 0x0180 Bytes, ...) - Data: 00 71 11 48 00 F0 EF F8 01 28 01 D1 64 2C F2 D3 ... -- CPU_WriteMem(384 bytes @ 0x20000400)  returns 0x180 (0009ms, 14295ms total)
T26B0 3424:132 JLINK_WriteReg(R0, 0x08000400)  returns 0x00 (0000ms, 14296ms total)
T26B0 3424:132 JLINK_WriteReg(R1, 0x00000400)  returns 0x00 (0000ms, 14296ms total)
T26B0 3424:132 JLINK_WriteReg(R2, 0x20000180)  returns 0x00 (0000ms, 14296ms total)
T26B0 3424:133 JLINK_WriteReg(R3, 0x00000000)  returns 0x00 (0001ms, 14298ms total)
T26B0 3424:134 JLINK_WriteReg(R4, 0x00000000)  returns 0x00 (0000ms, 14298ms total)
T26B0 3424:134 JLINK_WriteReg(R5, 0x00000000)  returns 0x00 (0000ms, 14298ms total)
T26B0 3424:134 JLINK_WriteReg(R6, 0x00000000)  returns 0x00 (0000ms, 14298ms total)
T26B0 3424:134 JLINK_WriteReg(R7, 0x00000000)  returns 0x00 (0000ms, 14298ms total)
T26B0 3424:134 JLINK_WriteReg(R8, 0x00000000)  returns 0x00 (0000ms, 14298ms total)
T26B0 3424:134 JLINK_WriteReg(R9, 0x2000017C)  returns 0x00 (0000ms, 14298ms total)
T26B0 3424:134 JLINK_WriteReg(R10, 0x00000000)  returns 0x00 (0000ms, 14298ms total)
T26B0 3424:134 JLINK_WriteReg(R11, 0x00000000)  returns 0x00 (0000ms, 14298ms total)
T26B0 3424:134 JLINK_WriteReg(R12, 0x00000000)  returns 0x00 (0000ms, 14298ms total)
T26B0 3424:134 JLINK_WriteReg(R13 (SP), 0x20001000)  returns 0x00 (0000ms, 14298ms total)
T26B0 3424:135 JLINK_WriteReg(R14, 0x20000001)  returns 0x00 (0000ms, 14299ms total)
T26B0 3424:135 JLINK_WriteReg(R15 (PC), 0x20000108)  returns 0x00 (0000ms, 14299ms total)
T26B0 3424:135 JLINK_WriteReg(XPSR, 0x01000000)  returns 0x00 (0000ms, 14299ms total)
T26B0 3424:135 JLINK_WriteReg(MSP, 0x20001000)  returns 0x00 (0000ms, 14299ms total)
T26B0 3424:135 JLINK_WriteReg(PSP, 0x20001000)  returns 0x00 (0000ms, 14299ms total)
T26B0 3424:135 JLINK_WriteReg(CFBP, 0x00000000)  returns 0x00 (0000ms, 14299ms total)
T26B0 3424:135 JLINK_SetBPEx(Addr = 0x20000000, Type = 0xFFFFFFF2)  returns 0x00000009 (0000ms, 14299ms total)
T26B0 3424:135 JLINK_Go() -- CPU_ReadMem(4 bytes @ 0xE0001000) (0003ms, 14302ms total)
T26B0 3424:138 JLINK_IsHalted()  returns FALSE (0000ms, 14302ms total)
T26B0 3424:214 JLINK_IsHalted() -- CPU_ReadMem(2 bytes @ 0x20000000)  returns TRUE (0004ms, 14306ms total)
T26B0 3424:218 JLINK_ReadReg(R15 (PC))  returns 0x20000000 (0000ms, 14302ms total)
T26B0 3424:218 JLINK_ClrBPEx(BPHandle = 0x00000009)  returns 0x00 (0000ms, 14302ms total)
T26B0 3424:218 JLINK_ReadReg(R0)  returns 0x00000000 (0000ms, 14302ms total)
T26B0 3424:219 JLINK_WriteMem(0x20000180, 0x0280 Bytes, ...) - Data: C5 68 4F 00 03 26 BE 40 B5 43 C5 60 D5 79 4E 00 ... -- CPU_WriteMem(640 bytes @ 0x20000180)  returns 0x280 (0008ms, 14310ms total)
T26B0 3424:228 JLINK_WriteMem(0x20000400, 0x0180 Bytes, ...) - Data: 7D F8 20 46 01 F0 3E F9 20 88 00 B1 70 BD 20 46 ... -- CPU_WriteMem(384 bytes @ 0x20000400)  returns 0x180 (0005ms, 14315ms total)
T26B0 3424:233 JLINK_WriteReg(R0, 0x08000800)  returns 0x00 (0000ms, 14315ms total)
T26B0 3424:233 JLINK_WriteReg(R1, 0x00000400)  returns 0x00 (0000ms, 14315ms total)
T26B0 3424:233 JLINK_WriteReg(R2, 0x20000180)  returns 0x00 (0000ms, 14315ms total)
T26B0 3424:233 JLINK_WriteReg(R3, 0x00000000)  returns 0x00 (0000ms, 14315ms total)
T26B0 3424:233 JLINK_WriteReg(R4, 0x00000000)  returns 0x00 (0000ms, 14315ms total)
T26B0 3424:233 JLINK_WriteReg(R5, 0x00000000)  returns 0x00 (0000ms, 14315ms total)
T26B0 3424:233 JLINK_WriteReg(R6, 0x00000000)  returns 0x00 (0000ms, 14315ms total)
T26B0 3424:233 JLINK_WriteReg(R7, 0x00000000)  returns 0x00 (0000ms, 14315ms total)
T26B0 3424:233 JLINK_WriteReg(R8, 0x00000000)  returns 0x00 (0000ms, 14315ms total)
T26B0 3424:233 JLINK_WriteReg(R9, 0x2000017C)  returns 0x00 (0000ms, 14315ms total)
T26B0 3424:233 JLINK_WriteReg(R10, 0x00000000)  returns 0x00 (0000ms, 14315ms total)
T26B0 3424:234 JLINK_WriteReg(R11, 0x00000000)  returns 0x00 (0000ms, 14316ms total)
T26B0 3424:234 JLINK_WriteReg(R12, 0x00000000)  returns 0x00 (0000ms, 14316ms total)
T26B0 3424:234 JLINK_WriteReg(R13 (SP), 0x20001000)  returns 0x00 (0000ms, 14316ms total)
T26B0 3424:234 JLINK_WriteReg(R14, 0x20000001)  returns 0x00 (0000ms, 14316ms total)
T26B0 3424:234 JLINK_WriteReg(R15 (PC), 0x20000108)  returns 0x00 (0000ms, 14316ms total)
T26B0 3424:234 JLINK_WriteReg(XPSR, 0x01000000)  returns 0x00 (0000ms, 14316ms total)
T26B0 3424:234 JLINK_WriteReg(MSP, 0x20001000)  returns 0x00 (0000ms, 14316ms total)
T26B0 3424:234 JLINK_WriteReg(PSP, 0x20001000)  returns 0x00 (0000ms, 14316ms total)
T26B0 3424:234 JLINK_WriteReg(CFBP, 0x00000000)  returns 0x00 (0000ms, 14316ms total)
T26B0 3424:234 JLINK_SetBPEx(Addr = 0x20000000, Type = 0xFFFFFFF2)  returns 0x0000000A (0000ms, 14316ms total)
T26B0 3424:234 JLINK_Go() -- CPU_ReadMem(4 bytes @ 0xE0001000) (0002ms, 14318ms total)
T26B0 3424:237 JLINK_IsHalted()  returns FALSE (0000ms, 14319ms total)
T26B0 3424:253 JLINK_IsHalted() -- CPU_ReadMem(2 bytes @ 0x20000000)  returns TRUE (0004ms, 14323ms total)
T26B0 3424:257 JLINK_ReadReg(R15 (PC))  returns 0x20000000 (0000ms, 14319ms total)
T26B0 3424:257 JLINK_ClrBPEx(BPHandle = 0x0000000A)  returns 0x00 (0000ms, 14319ms total)
T26B0 3424:257 JLINK_ReadReg(R0)  returns 0x00000000 (0000ms, 14319ms total)
T26B0 3424:259 JLINK_WriteMem(0x20000180, 0x0280 Bytes, ...) - Data: 00 BF E1 E7 1E 48 00 78 00 28 05 DD 00 BF 20 46 ... -- CPU_WriteMem(640 bytes @ 0x20000180)  returns 0x280 (0013ms, 14332ms total)
T26B0 3424:273 JLINK_WriteMem(0x20000400, 0x0180 Bytes, ...) - Data: 99 20 20 80 02 E0 45 F6 8A 60 20 80 10 BD 00 00 ... -- CPU_WriteMem(384 bytes @ 0x20000400)  returns 0x180 (0005ms, 14337ms total)
T26B0 3424:278 JLINK_WriteReg(R0, 0x08000C00)  returns 0x00 (0000ms, 14337ms total)
T26B0 3424:278 JLINK_WriteReg(R1, 0x00000400)  returns 0x00 (0000ms, 14337ms total)
T26B0 3424:278 JLINK_WriteReg(R2, 0x20000180)  returns 0x00 (0000ms, 14337ms total)
T26B0 3424:278 JLINK_WriteReg(R3, 0x00000000)  returns 0x00 (0000ms, 14337ms total)
T26B0 3424:278 JLINK_WriteReg(R4, 0x00000000)  returns 0x00 (0000ms, 14337ms total)
T26B0 3424:278 JLINK_WriteReg(R5, 0x00000000)  returns 0x00 (0000ms, 14337ms total)
T26B0 3424:278 JLINK_WriteReg(R6, 0x00000000)  returns 0x00 (0000ms, 14337ms total)
T26B0 3424:278 JLINK_WriteReg(R7, 0x00000000)  returns 0x00 (0000ms, 14337ms total)
T26B0 3424:278 JLINK_WriteReg(R8, 0x00000000)  returns 0x00 (0000ms, 14337ms total)
T26B0 3424:278 JLINK_WriteReg(R9, 0x2000017C)  returns 0x00 (0000ms, 14337ms total)
T26B0 3424:278 JLINK_WriteReg(R10, 0x00000000)  returns 0x00 (0000ms, 14337ms total)
T26B0 3424:278 JLINK_WriteReg(R11, 0x00000000)  returns 0x00 (0000ms, 14337ms total)
T26B0 3424:278 JLINK_WriteReg(R12, 0x00000000)  returns 0x00 (0000ms, 14337ms total)
T26B0 3424:278 JLINK_WriteReg(R13 (SP), 0x20001000)  returns 0x00 (0000ms, 14337ms total)
T26B0 3424:278 JLINK_WriteReg(R14, 0x20000001)  returns 0x00 (0000ms, 14337ms total)
T26B0 3424:278 JLINK_WriteReg(R15 (PC), 0x20000108)  returns 0x00 (0000ms, 14337ms total)
T26B0 3424:278 JLINK_WriteReg(XPSR, 0x01000000)  returns 0x00 (0000ms, 14337ms total)
T26B0 3424:278 JLINK_WriteReg(MSP, 0x20001000)  returns 0x00 (0000ms, 14337ms total)
T26B0 3424:278 JLINK_WriteReg(PSP, 0x20001000)  returns 0x00 (0001ms, 14338ms total)
T26B0 3424:279 JLINK_WriteReg(CFBP, 0x00000000)  returns 0x00 (0000ms, 14338ms total)
T26B0 3424:279 JLINK_SetBPEx(Addr = 0x20000000, Type = 0xFFFFFFF2)  returns 0x0000000B (0000ms, 14338ms total)
T26B0 3424:279 JLINK_Go() -- CPU_ReadMem(4 bytes @ 0xE0001000) (0002ms, 14340ms total)
T26B0 3424:281 JLINK_IsHalted()  returns FALSE (0001ms, 14341ms total)
T26B0 3424:313 JLINK_IsHalted() -- CPU_ReadMem(2 bytes @ 0x20000000)  returns TRUE (0023ms, 14363ms total)
T26B0 3424:336 JLINK_ReadReg(R15 (PC))  returns 0x20000000 (0000ms, 14340ms total)
T26B0 3424:336 JLINK_ClrBPEx(BPHandle = 0x0000000B)  returns 0x00 (0000ms, 14340ms total)
T26B0 3424:336 JLINK_ReadReg(R0)  returns 0x00000000 (0000ms, 14340ms total)
T26B0 3424:337 JLINK_WriteMem(0x20000180, 0x0280 Bytes, ...) - Data: 37 48 00 78 40 1C 36 49 08 70 00 BF 00 BF 03 98 ... -- CPU_WriteMem(640 bytes @ 0x20000180)  returns 0x280 (0009ms, 14349ms total)
T26B0 3424:346 JLINK_WriteMem(0x20000400, 0x0180 Bytes, ...) - Data: FE F7 FA FF 06 46 00 BF 00 BF 0D 48 00 78 40 1E ... -- CPU_WriteMem(384 bytes @ 0x20000400)  returns 0x180 (0005ms, 14354ms total)
T26B0 3424:351 JLINK_WriteReg(R0, 0x08001000)  returns 0x00 (0000ms, 14354ms total)
T26B0 3424:351 JLINK_WriteReg(R1, 0x00000400)  returns 0x00 (0000ms, 14354ms total)
T26B0 3424:351 JLINK_WriteReg(R2, 0x20000180)  returns 0x00 (0000ms, 14354ms total)
T26B0 3424:351 JLINK_WriteReg(R3, 0x00000000)  returns 0x00 (0000ms, 14354ms total)
T26B0 3424:351 JLINK_WriteReg(R4, 0x00000000)  returns 0x00 (0000ms, 14354ms total)
T26B0 3424:351 JLINK_WriteReg(R5, 0x00000000)  returns 0x00 (0000ms, 14354ms total)
T26B0 3424:351 JLINK_WriteReg(R6, 0x00000000)  returns 0x00 (0000ms, 14354ms total)
T26B0 3424:351 JLINK_WriteReg(R7, 0x00000000)  returns 0x00 (0000ms, 14354ms total)
T26B0 3424:351 JLINK_WriteReg(R8, 0x00000000)  returns 0x00 (0000ms, 14354ms total)
T26B0 3424:351 JLINK_WriteReg(R9, 0x2000017C)  returns 0x00 (0000ms, 14354ms total)
T26B0 3424:351 JLINK_WriteReg(R10, 0x00000000)  returns 0x00 (0000ms, 14354ms total)
T26B0 3424:351 JLINK_WriteReg(R11, 0x00000000)  returns 0x00 (0000ms, 14354ms total)
T26B0 3424:351 JLINK_WriteReg(R12, 0x00000000)  returns 0x00 (0000ms, 14354ms total)
T26B0 3424:351 JLINK_WriteReg(R13 (SP), 0x20001000)  returns 0x00 (0000ms, 14354ms total)
T26B0 3424:351 JLINK_WriteReg(R14, 0x20000001)  returns 0x00 (0000ms, 14354ms total)
T26B0 3424:351 JLINK_WriteReg(R15 (PC), 0x20000108)  returns 0x00 (0000ms, 14354ms total)
T26B0 3424:351 JLINK_WriteReg(XPSR, 0x01000000)  returns 0x00 (0000ms, 14354ms total)
T26B0 3424:351 JLINK_WriteReg(MSP, 0x20001000)  returns 0x00 (0000ms, 14354ms total)
T26B0 3424:351 JLINK_WriteReg(PSP, 0x20001000)  returns 0x00 (0000ms, 14354ms total)
T26B0 3424:351 JLINK_WriteReg(CFBP, 0x00000000)  returns 0x00 (0000ms, 14354ms total)
T26B0 3424:351 JLINK_SetBPEx(Addr = 0x20000000, Type = 0xFFFFFFF2)  returns 0x0000000C (0001ms, 14355ms total)
T26B0 3424:352 JLINK_Go() -- CPU_ReadMem(4 bytes @ 0xE0001000) (0002ms, 14357ms total)
T26B0 3424:354 JLINK_IsHalted()  returns FALSE (0000ms, 14357ms total)
T26B0 3424:481 JLINK_IsHalted() -- CPU_ReadMem(2 bytes @ 0x20000000)  returns TRUE (0004ms, 14361ms total)
T26B0 3424:485 JLINK_ReadReg(R15 (PC))  returns 0x20000000 (0000ms, 14357ms total)
T26B0 3424:485 JLINK_ClrBPEx(BPHandle = 0x0000000C)  returns 0x00 (0000ms, 14357ms total)
T26B0 3424:485 JLINK_ReadReg(R0)  returns 0x00000000 (0000ms, 14357ms total)
T26B0 3424:486 JLINK_WriteMem(0x20000180, 0x0280 Bytes, ...) - Data: 8C E7 00 BF 41 48 00 78 40 1C 40 49 08 70 00 BF ... -- CPU_WriteMem(640 bytes @ 0x20000180)  returns 0x280 (0009ms, 14366ms total)
T26B0 3424:495 JLINK_WriteMem(0x20000400, 0x0180 Bytes, ...) - Data: 00 C0 4F F0 26 0C 07 1F 38 46 C7 F8 00 C0 4F F0 ... -- CPU_WriteMem(384 bytes @ 0x20000400)  returns 0x180 (0012ms, 14378ms total)
T26B0 3424:507 JLINK_WriteReg(R0, 0x08001400)  returns 0x00 (0000ms, 14378ms total)
T26B0 3424:507 JLINK_WriteReg(R1, 0x00000400)  returns 0x00 (0000ms, 14378ms total)
T26B0 3424:507 JLINK_WriteReg(R2, 0x20000180)  returns 0x00 (0000ms, 14378ms total)
T26B0 3424:507 JLINK_WriteReg(R3, 0x00000000)  returns 0x00 (0000ms, 14378ms total)
T26B0 3424:507 JLINK_WriteReg(R4, 0x00000000)  returns 0x00 (0001ms, 14379ms total)
T26B0 3424:508 JLINK_WriteReg(R5, 0x00000000)  returns 0x00 (0000ms, 14379ms total)
T26B0 3424:508 JLINK_WriteReg(R6, 0x00000000)  returns 0x00 (0000ms, 14379ms total)
T26B0 3424:508 JLINK_WriteReg(R7, 0x00000000)  returns 0x00 (0000ms, 14379ms total)
T26B0 3424:508 JLINK_WriteReg(R8, 0x00000000)  returns 0x00 (0000ms, 14379ms total)
T26B0 3424:508 JLINK_WriteReg(R9, 0x2000017C)  returns 0x00 (0000ms, 14379ms total)
T26B0 3424:508 JLINK_WriteReg(R10, 0x00000000)  returns 0x00 (0000ms, 14379ms total)
T26B0 3424:508 JLINK_WriteReg(R11, 0x00000000)  returns 0x00 (0000ms, 14379ms total)
T26B0 3424:508 JLINK_WriteReg(R12, 0x00000000)  returns 0x00 (0000ms, 14379ms total)
T26B0 3424:508 JLINK_WriteReg(R13 (SP), 0x20001000)  returns 0x00 (0000ms, 14379ms total)
T26B0 3424:508 JLINK_WriteReg(R14, 0x20000001)  returns 0x00 (0000ms, 14379ms total)
T26B0 3424:508 JLINK_WriteReg(R15 (PC), 0x20000108)  returns 0x00 (0000ms, 14379ms total)
T26B0 3424:508 JLINK_WriteReg(XPSR, 0x01000000)  returns 0x00 (0000ms, 14379ms total)
T26B0 3424:508 JLINK_WriteReg(MSP, 0x20001000)  returns 0x00 (0000ms, 14379ms total)
T26B0 3424:508 JLINK_WriteReg(PSP, 0x20001000)  returns 0x00 (0000ms, 14379ms total)
T26B0 3424:508 JLINK_WriteReg(CFBP, 0x00000000)  returns 0x00 (0000ms, 14379ms total)
T26B0 3424:508 JLINK_SetBPEx(Addr = 0x20000000, Type = 0xFFFFFFF2)  returns 0x0000000D (0000ms, 14379ms total)
T26B0 3424:508 JLINK_Go() -- CPU_ReadMem(4 bytes @ 0xE0001000) (0004ms, 14383ms total)
T26B0 3424:513 JLINK_IsHalted()  returns FALSE (0000ms, 14384ms total)
T26B0 3424:637 JLINK_IsHalted() -- CPU_ReadMem(2 bytes @ 0x20000000)  returns TRUE (0003ms, 14387ms total)
T26B0 3424:641 JLINK_ReadReg(R15 (PC))  returns 0x20000000 (0000ms, 14384ms total)
T26B0 3424:641 JLINK_ClrBPEx(BPHandle = 0x0000000D)  returns 0x00 (0000ms, 14384ms total)
T26B0 3424:641 JLINK_ReadReg(R0)  returns 0x00000000 (0000ms, 14384ms total)
T26B0 3424:654 JLINK_WriteMem(0x20000180, 0x0280 Bytes, ...) - Data: 3F 48 00 78 00 28 04 DD 47 F2 75 20 20 80 BD E8 ... -- CPU_WriteMem(640 bytes @ 0x20000180)  returns 0x280 (0008ms, 14392ms total)
T26B0 3424:662 JLINK_WriteMem(0x20000400, 0x0180 Bytes, ...) - Data: FE F7 FA FB 00 90 00 BF 00 BF 19 48 00 78 40 1E ... -- CPU_WriteMem(384 bytes @ 0x20000400)  returns 0x180 (0006ms, 14398ms total)
T26B0 3424:668 JLINK_WriteReg(R0, 0x08001800)  returns 0x00 (0000ms, 14398ms total)
T26B0 3424:668 JLINK_WriteReg(R1, 0x00000400)  returns 0x00 (0000ms, 14398ms total)
T26B0 3424:668 JLINK_WriteReg(R2, 0x20000180)  returns 0x00 (0000ms, 14398ms total)
T26B0 3424:668 JLINK_WriteReg(R3, 0x00000000)  returns 0x00 (0000ms, 14398ms total)
T26B0 3424:668 JLINK_WriteReg(R4, 0x00000000)  returns 0x00 (0000ms, 14398ms total)
T26B0 3424:668 JLINK_WriteReg(R5, 0x00000000)  returns 0x00 (0000ms, 14398ms total)
T26B0 3424:668 JLINK_WriteReg(R6, 0x00000000)  returns 0x00 (0000ms, 14398ms total)
T26B0 3424:668 JLINK_WriteReg(R7, 0x00000000)  returns 0x00 (0000ms, 14398ms total)
T26B0 3424:668 JLINK_WriteReg(R8, 0x00000000)  returns 0x00 (0000ms, 14398ms total)
T26B0 3424:668 JLINK_WriteReg(R9, 0x2000017C)  returns 0x00 (0000ms, 14398ms total)
T26B0 3424:668 JLINK_WriteReg(R10, 0x00000000)  returns 0x00 (0000ms, 14398ms total)
T26B0 3424:668 JLINK_WriteReg(R11, 0x00000000)  returns 0x00 (0000ms, 14398ms total)
T26B0 3424:668 JLINK_WriteReg(R12, 0x00000000)  returns 0x00 (0000ms, 14398ms total)
T26B0 3424:668 JLINK_WriteReg(R13 (SP), 0x20001000)  returns 0x00 (0000ms, 14398ms total)
T26B0 3424:668 JLINK_WriteReg(R14, 0x20000001)  returns 0x00 (0000ms, 14398ms total)
T26B0 3424:668 JLINK_WriteReg(R15 (PC), 0x20000108)  returns 0x00 (0000ms, 14398ms total)
T26B0 3424:668 JLINK_WriteReg(XPSR, 0x01000000)  returns 0x00 (0000ms, 14398ms total)
T26B0 3424:668 JLINK_WriteReg(MSP, 0x20001000)  returns 0x00 (0000ms, 14398ms total)
T26B0 3424:668 JLINK_WriteReg(PSP, 0x20001000)  returns 0x00 (0000ms, 14398ms total)
T26B0 3424:668 JLINK_WriteReg(CFBP, 0x00000000)  returns 0x00 (0000ms, 14398ms total)
T26B0 3424:668 JLINK_SetBPEx(Addr = 0x20000000, Type = 0xFFFFFFF2)  returns 0x0000000E (0000ms, 14398ms total)
T26B0 3424:668 JLINK_Go() -- CPU_ReadMem(4 bytes @ 0xE0001000) (0003ms, 14401ms total)
T26B0 3424:671 JLINK_IsHalted()  returns FALSE (0001ms, 14402ms total)
T26B0 3424:682 JLINK_IsHalted() -- CPU_ReadMem(2 bytes @ 0x20000000)  returns TRUE (0004ms, 14405ms total)
T26B0 3424:686 JLINK_ReadReg(R15 (PC))  returns 0x20000000 (0000ms, 14401ms total)
T26B0 3424:686 JLINK_ClrBPEx(BPHandle = 0x0000000E)  returns 0x00 (0000ms, 14401ms total)
T26B0 3424:686 JLINK_ReadReg(R0)  returns 0x00000000 (0000ms, 14401ms total)
T26B0 3424:700 JLINK_WriteMem(0x20000180, 0x0280 Bytes, ...) - Data: F4 4B 00 08 F1 4B 00 08 1C 4C 00 08 1D 4C 00 08 ... -- CPU_WriteMem(640 bytes @ 0x20000180)  returns 0x280 (0008ms, 14409ms total)
T26B0 3424:708 JLINK_WriteMem(0x20000400, 0x0180 Bytes, ...) - Data: 00 78 40 1E 2F 49 08 70 08 46 00 78 A0 B9 2E 48 ... -- CPU_WriteMem(384 bytes @ 0x20000400)  returns 0x180 (0006ms, 14415ms total)
T26B0 3424:714 JLINK_WriteReg(R0, 0x08001C00)  returns 0x00 (0000ms, 14415ms total)
T26B0 3424:714 JLINK_WriteReg(R1, 0x00000400)  returns 0x00 (0000ms, 14415ms total)
T26B0 3424:714 JLINK_WriteReg(R2, 0x20000180)  returns 0x00 (0000ms, 14415ms total)
T26B0 3424:714 JLINK_WriteReg(R3, 0x00000000)  returns 0x00 (0000ms, 14415ms total)
T26B0 3424:714 JLINK_WriteReg(R4, 0x00000000)  returns 0x00 (0000ms, 14415ms total)
T26B0 3424:714 JLINK_WriteReg(R5, 0x00000000)  returns 0x00 (0000ms, 14415ms total)
T26B0 3424:714 JLINK_WriteReg(R6, 0x00000000)  returns 0x00 (0000ms, 14415ms total)
